# 金码二维风速仪

## 采集指令速查表

|   ID  |   指令                    |
|   --- |   ---                     |
|	1	|	01 03 00 00 00 02 C4 0B	|
|	2	|	02 03 00 00 00 02 C4 38	|
|	3	|	03 03 00 00 00 02 C5 E9	|
|	4	|	04 03 00 00 00 02 C4 5E	|
|	5	|	05 03 00 00 00 02 C5 8F	|
|	6	|	06 03 00 00 00 02 C5 BC	|
|	7	|	07 03 00 00 00 02 C4 6D	|
|	8	|	08 03 00 00 00 02 C4 92	|
|	9	|	09 03 00 00 00 02 C5 43	|
|	10	|	0A 03 00 00 00 02 C5 70	|
|	11	|	0B 03 00 00 00 02 C4 A1	|
|	12	|	0C 03 00 00 00 02 C5 16	|
|	13	|	0D 03 00 00 00 02 C4 C7	|
|	14	|	0E 03 00 00 00 02 C4 F4	|
|	15	|	0F 03 00 00 00 02 C5 25	|
|	16	|	10 03 00 00 00 02 C7 4A	|
|	17	|	11 03 00 00 00 02 C6 9B	|
|	18	|	12 03 00 00 00 02 C6 A8	|
|	19	|	13 03 00 00 00 02 C7 79	|
|	20	|	14 03 00 00 00 02 C6 CE	|
|	21	|	15 03 00 00 00 02 C7 1F	|
|	22	|	16 03 00 00 00 02 C7 2C	|
|	23	|	17 03 00 00 00 02 C6 FD	|
|	24	|	18 03 00 00 00 02 C6 02	|
|	25	|	19 03 00 00 00 02 C7 D3	|
|	26	|	1A 03 00 00 00 02 C7 E0	|
|	27	|	1B 03 00 00 00 02 C6 31	|
|	28	|	1C 03 00 00 00 02 C7 86	|
|	29	|	1D 03 00 00 00 02 C6 57	|
|	30	|	1E 03 00 00 00 02 C6 64	|
|	31	|	1F 03 00 00 00 02 C7 B5	|
|	32	|	20 03 00 00 00 02 C2 BA	|
|	33	|	21 03 00 00 00 02 C3 6B	|
|	34	|	22 03 00 00 00 02 C3 58	|
|	35	|	23 03 00 00 00 02 C2 89	|
|	36	|	24 03 00 00 00 02 C3 3E	|
|	37	|	25 03 00 00 00 02 C2 EF	|
|	38	|	26 03 00 00 00 02 C2 DC	|
|	39	|	27 03 00 00 00 02 C3 0D	|
|	40	|	28 03 00 00 00 02 C3 F2	|
|	41	|	29 03 00 00 00 02 C2 23	|
|	42	|	2A 03 00 00 00 02 C2 10	|
|	43	|	2B 03 00 00 00 02 C3 C1	|
|	44	|	2C 03 00 00 00 02 C2 76	|
|	45	|	2D 03 00 00 00 02 C3 A7	|
|	46	|	2E 03 00 00 00 02 C3 94	|
|	47	|	2F 03 00 00 00 02 C2 45	|
|	48	|	30 03 00 00 00 02 C0 2A	|
|	49	|	31 03 00 00 00 02 C1 FB	|
|	50	|	32 03 00 00 00 02 C1 C8	|
|	51	|	33 03 00 00 00 02 C0 19	|
|	52	|	34 03 00 00 00 02 C1 AE	|
|	53	|	35 03 00 00 00 02 C0 7F	|
|	54	|	36 03 00 00 00 02 C0 4C	|
|	55	|	37 03 00 00 00 02 C1 9D	|
|	56	|	38 03 00 00 00 02 C1 62	|
|	57	|	39 03 00 00 00 02 C0 B3	|
|	58	|	3A 03 00 00 00 02 C0 80	|
|	59	|	3B 03 00 00 00 02 C1 51	|
|	60	|	3C 03 00 00 00 02 C0 E6	|
|	61	|	3D 03 00 00 00 02 C1 37	|
|	62	|	3E 03 00 00 00 02 C1 04	|
|	63	|	3F 03 00 00 00 02 C0 D5	|
|	64	|	40 03 00 00 00 02 CB 1A	|
|	65	|	41 03 00 00 00 02 CA CB	|
|	66	|	42 03 00 00 00 02 CA F8	|
|	67	|	43 03 00 00 00 02 CB 29	|
|	68	|	44 03 00 00 00 02 CA 9E	|
|	69	|	45 03 00 00 00 02 CB 4F	|
|	70	|	46 03 00 00 00 02 CB 7C	|
|	71	|	47 03 00 00 00 02 CA AD	|
|	72	|	48 03 00 00 00 02 CA 52	|
|	73	|	49 03 00 00 00 02 CB 83	|
|	74	|	4A 03 00 00 00 02 CB B0	|
|	75	|	4B 03 00 00 00 02 CA 61	|
|	76	|	4C 03 00 00 00 02 CB D6	|
|	77	|	4D 03 00 00 00 02 CA 07	|
|	78	|	4E 03 00 00 00 02 CA 34	|
|	79	|	4F 03 00 00 00 02 CB E5	|
|	80	|	50 03 00 00 00 02 C9 8A	|
|	81	|	51 03 00 00 00 02 C8 5B	|
|	82	|	52 03 00 00 00 02 C8 68	|
|	83	|	53 03 00 00 00 02 C9 B9	|
|	84	|	54 03 00 00 00 02 C8 0E	|
|	85	|	55 03 00 00 00 02 C9 DF	|
|	86	|	56 03 00 00 00 02 C9 EC	|
|	87	|	57 03 00 00 00 02 C8 3D	|
|	88	|	58 03 00 00 00 02 C8 C2	|
|	89	|	59 03 00 00 00 02 C9 13	|
|	90	|	5A 03 00 00 00 02 C9 20	|
|	91	|	5B 03 00 00 00 02 C8 F1	|
|	92	|	5C 03 00 00 00 02 C9 46	|
|	93	|	5D 03 00 00 00 02 C8 97	|
|	94	|	5E 03 00 00 00 02 C8 A4	|
|	95	|	5F 03 00 00 00 02 C9 75	|
|	96	|	60 03 00 00 00 02 CC 7A	|
|	97	|	61 03 00 00 00 02 CD AB	|
|	98	|	62 03 00 00 00 02 CD 98	|
|	99	|	63 03 00 00 00 02 CC 49	|
|	100	|	64 03 00 00 00 02 CD FE	|