# 激光位移

## 采集指令速查表

|   ID  |   指令                    |
|   --- |   ---                     |
|	1	|	01 03 00 15 00 02 D5 CF	|
|	2	|	02 03 00 15 00 02 D5 FC	|
|	3	|	03 03 00 15 00 02 D4 2D	|
|	4	|	04 03 00 15 00 02 D5 9A	|
|	5	|	05 03 00 15 00 02 D4 4B	|
|	6	|	06 03 00 15 00 02 D4 78	|
|	7	|	07 03 00 15 00 02 D5 A9	|
|	8	|	08 03 00 15 00 02 D5 56	|
|	9	|	09 03 00 15 00 02 D4 87	|
|	10	|	0A 03 00 15 00 02 D4 B4	|
|	11	|	0B 03 00 15 00 02 D5 65	|
|	12	|	0C 03 00 15 00 02 D4 D2	|
|	13	|	0D 03 00 15 00 02 D5 03	|
|	14	|	0E 03 00 15 00 02 D5 30	|
|	15	|	0F 03 00 15 00 02 D4 E1	|
|	16	|	10 03 00 15 00 02 D6 8E	|
|	17	|	11 03 00 15 00 02 D7 5F	|
|	18	|	12 03 00 15 00 02 D7 6C	|
|	19	|	13 03 00 15 00 02 D6 BD	|
|	20	|	14 03 00 15 00 02 D7 0A	|
|	21	|	15 03 00 15 00 02 D6 DB	|
|	22	|	16 03 00 15 00 02 D6 E8	|
|	23	|	17 03 00 15 00 02 D7 39	|
|	24	|	18 03 00 15 00 02 D7 C6	|
|	25	|	19 03 00 15 00 02 D6 17	|
|	26	|	1A 03 00 15 00 02 D6 24	|
|	27	|	1B 03 00 15 00 02 D7 F5	|
|	28	|	1C 03 00 15 00 02 D6 42	|
|	29	|	1D 03 00 15 00 02 D7 93	|
|	30	|	1E 03 00 15 00 02 D7 A0	|
|	31	|	1F 03 00 15 00 02 D6 71	|
|	32	|	20 03 00 15 00 02 D3 7E	|
|	33	|	21 03 00 15 00 02 D2 AF	|
|	34	|	22 03 00 15 00 02 D2 9C	|
|	35	|	23 03 00 15 00 02 D3 4D	|
|	36	|	24 03 00 15 00 02 D2 FA	|
|	37	|	25 03 00 15 00 02 D3 2B	|
|	38	|	26 03 00 15 00 02 D3 18	|
|	39	|	27 03 00 15 00 02 D2 C9	|
|	40	|	28 03 00 15 00 02 D2 36	|
|	41	|	29 03 00 15 00 02 D3 E7	|
|	42	|	2A 03 00 15 00 02 D3 D4	|
|	43	|	2B 03 00 15 00 02 D2 05	|
|	44	|	2C 03 00 15 00 02 D3 B2	|
|	45	|	2D 03 00 15 00 02 D2 63	|
|	46	|	2E 03 00 15 00 02 D2 50	|
|	47	|	2F 03 00 15 00 02 D3 81	|
|	48	|	30 03 00 15 00 02 D1 EE	|
|	49	|	31 03 00 15 00 02 D0 3F	|
|	50	|	32 03 00 15 00 02 D0 0C	|
|	51	|	33 03 00 15 00 02 D1 DD	|
|	52	|	34 03 00 15 00 02 D0 6A	|
|	53	|	35 03 00 15 00 02 D1 BB	|
|	54	|	36 03 00 15 00 02 D1 88	|
|	55	|	37 03 00 15 00 02 D0 59	|
|	56	|	38 03 00 15 00 02 D0 A6	|
|	57	|	39 03 00 15 00 02 D1 77	|
|	58	|	3A 03 00 15 00 02 D1 44	|
|	59	|	3B 03 00 15 00 02 D0 95	|
|	60	|	3C 03 00 15 00 02 D1 22	|
|	61	|	3D 03 00 15 00 02 D0 F3	|
|	62	|	3E 03 00 15 00 02 D0 C0	|
|	63	|	3F 03 00 15 00 02 D1 11	|
|	64	|	40 03 00 15 00 02 DA DE	|
|	65	|	41 03 00 15 00 02 DB 0F	|
|	66	|	42 03 00 15 00 02 DB 3C	|
|	67	|	43 03 00 15 00 02 DA ED	|
|	68	|	44 03 00 15 00 02 DB 5A	|
|	69	|	45 03 00 15 00 02 DA 8B	|
|	70	|	46 03 00 15 00 02 DA B8	|
|	71	|	47 03 00 15 00 02 DB 69	|
|	72	|	48 03 00 15 00 02 DB 96	|
|	73	|	49 03 00 15 00 02 DA 47	|
|	74	|	4A 03 00 15 00 02 DA 74	|
|	75	|	4B 03 00 15 00 02 DB A5	|
|	76	|	4C 03 00 15 00 02 DA 12	|
|	77	|	4D 03 00 15 00 02 DB C3	|
|	78	|	4E 03 00 15 00 02 DB F0	|
|	79	|	4F 03 00 15 00 02 DA 21	|
|	80	|	50 03 00 15 00 02 D8 4E	|
|	81	|	51 03 00 15 00 02 D9 9F	|
|	82	|	52 03 00 15 00 02 D9 AC	|
|	83	|	53 03 00 15 00 02 D8 7D	|
|	84	|	54 03 00 15 00 02 D9 CA	|
|	85	|	55 03 00 15 00 02 D8 1B	|
|	86	|	56 03 00 15 00 02 D8 28	|
|	87	|	57 03 00 15 00 02 D9 F9	|
|	88	|	58 03 00 15 00 02 D9 06	|
|	89	|	59 03 00 15 00 02 D8 D7	|
|	90	|	5A 03 00 15 00 02 D8 E4	|
|	91	|	5B 03 00 15 00 02 D9 35	|
|	92	|	5C 03 00 15 00 02 D8 82	|
|	93	|	5D 03 00 15 00 02 D9 53	|
|	94	|	5E 03 00 15 00 02 D9 60	|
|	95	|	5F 03 00 15 00 02 D8 B1	|
|	96	|	60 03 00 15 00 02 DD BE	|
|	97	|	61 03 00 15 00 02 DC 6F	|
|	98	|	62 03 00 15 00 02 DC 5C	|
|	99	|	63 03 00 15 00 02 DD 8D	|
|	100	|	64 03 00 15 00 02 DC 3A	|