# 浙达位移

## 采集指令速查表

|   ID  |   指令                    |
|   --- |   ---                     |
|	1	|	01 04 00 00 00 02 71 CB	|
|	2	|	02 04 00 00 00 02 71 F8	|
|	3	|	03 04 00 00 00 02 70 29	|
|	4	|	04 04 00 00 00 02 71 9E	|
|	5	|	05 04 00 00 00 02 70 4F	|
|	6	|	06 04 00 00 00 02 70 7C	|
|	7	|	07 04 00 00 00 02 71 AD	|
|	8	|	08 04 00 00 00 02 71 52	|
|	9	|	09 04 00 00 00 02 70 83	|
|	10	|	0A 04 00 00 00 02 70 B0	|
|	11	|	0B 04 00 00 00 02 71 61	|
|	12	|	0C 04 00 00 00 02 70 D6	|
|	13	|	0D 04 00 00 00 02 71 07	|
|	14	|	0E 04 00 00 00 02 71 34	|
|	15	|	0F 04 00 00 00 02 70 E5	|
|	16	|	10 04 00 00 00 02 72 8A	|
|	17	|	11 04 00 00 00 02 73 5B	|
|	18	|	12 04 00 00 00 02 73 68	|
|	19	|	13 04 00 00 00 02 72 B9	|
|	20	|	14 04 00 00 00 02 73 0E	|
|	21	|	15 04 00 00 00 02 72 DF	|
|	22	|	16 04 00 00 00 02 72 EC	|
|	23	|	17 04 00 00 00 02 73 3D	|
|	24	|	18 04 00 00 00 02 73 C2	|
|	25	|	19 04 00 00 00 02 72 13	|
|	26	|	1A 04 00 00 00 02 72 20	|
|	27	|	1B 04 00 00 00 02 73 F1	|
|	28	|	1C 04 00 00 00 02 72 46	|
|	29	|	1D 04 00 00 00 02 73 97	|
|	30	|	1E 04 00 00 00 02 73 A4	|
|	31	|	1F 04 00 00 00 02 72 75	|
|	32	|	20 04 00 00 00 02 77 7A	|
|	33	|	21 04 00 00 00 02 76 AB	|
|	34	|	22 04 00 00 00 02 76 98	|
|	35	|	23 04 00 00 00 02 77 49	|
|	36	|	24 04 00 00 00 02 76 FE	|
|	37	|	25 04 00 00 00 02 77 2F	|
|	38	|	26 04 00 00 00 02 77 1C	|
|	39	|	27 04 00 00 00 02 76 CD	|
|	40	|	28 04 00 00 00 02 76 32	|
|	41	|	29 04 00 00 00 02 77 E3	|
|	42	|	2A 04 00 00 00 02 77 D0	|
|	43	|	2B 04 00 00 00 02 76 01	|
|	44	|	2C 04 00 00 00 02 77 B6	|
|	45	|	2D 04 00 00 00 02 76 67	|
|	46	|	2E 04 00 00 00 02 76 54	|
|	47	|	2F 04 00 00 00 02 77 85	|
|	48	|	30 04 00 00 00 02 75 EA	|
|	49	|	31 04 00 00 00 02 74 3B	|
|	50	|	32 04 00 00 00 02 74 08	|
|	51	|	33 04 00 00 00 02 75 D9	|
|	52	|	34 04 00 00 00 02 74 6E	|
|	53	|	35 04 00 00 00 02 75 BF	|
|	54	|	36 04 00 00 00 02 75 8C	|
|	55	|	37 04 00 00 00 02 74 5D	|
|	56	|	38 04 00 00 00 02 74 A2	|
|	57	|	39 04 00 00 00 02 75 73	|
|	58	|	3A 04 00 00 00 02 75 40	|
|	59	|	3B 04 00 00 00 02 74 91	|
|	60	|	3C 04 00 00 00 02 75 26	|
|	61	|	3D 04 00 00 00 02 74 F7	|
|	62	|	3E 04 00 00 00 02 74 C4	|
|	63	|	3F 04 00 00 00 02 75 15	|
|	64	|	40 04 00 00 00 02 7E DA	|
|	65	|	41 04 00 00 00 02 7F 0B	|
|	66	|	42 04 00 00 00 02 7F 38	|
|	67	|	43 04 00 00 00 02 7E E9	|
|	68	|	44 04 00 00 00 02 7F 5E	|
|	69	|	45 04 00 00 00 02 7E 8F	|
|	70	|	46 04 00 00 00 02 7E BC	|
|	71	|	47 04 00 00 00 02 7F 6D	|
|	72	|	48 04 00 00 00 02 7F 92	|
|	73	|	49 04 00 00 00 02 7E 43	|
|	74	|	4A 04 00 00 00 02 7E 70	|
|	75	|	4B 04 00 00 00 02 7F A1	|
|	76	|	4C 04 00 00 00 02 7E 16	|
|	77	|	4D 04 00 00 00 02 7F C7	|
|	78	|	4E 04 00 00 00 02 7F F4	|
|	79	|	4F 04 00 00 00 02 7E 25	|
|	80	|	50 04 00 00 00 02 7C 4A	|
|	81	|	51 04 00 00 00 02 7D 9B	|
|	82	|	52 04 00 00 00 02 7D A8	|
|	83	|	53 04 00 00 00 02 7C 79	|
|	84	|	54 04 00 00 00 02 7D CE	|
|	85	|	55 04 00 00 00 02 7C 1F	|
|	86	|	56 04 00 00 00 02 7C 2C	|
|	87	|	57 04 00 00 00 02 7D FD	|
|	88	|	58 04 00 00 00 02 7D 02	|
|	89	|	59 04 00 00 00 02 7C D3	|
|	90	|	5A 04 00 00 00 02 7C E0	|
|	91	|	5B 04 00 00 00 02 7D 31	|
|	92	|	5C 04 00 00 00 02 7C 86	|
|	93	|	5D 04 00 00 00 02 7D 57	|
|	94	|	5E 04 00 00 00 02 7D 64	|
|	95	|	5F 04 00 00 00 02 7C B5	|
|	96	|	60 04 00 00 00 02 79 BA	|
|	97	|	61 04 00 00 00 02 78 6B	|
|	98	|	62 04 00 00 00 02 78 58	|
|	99	|	63 04 00 00 00 02 79 89	|
|	100	|	64 04 00 00 00 02 78 3E	|