# 鲲航数字温度计

## 采集指令速查表

|   ID  |           16通道          |           4通道           |
|   --- |           ---             |           ---             |
|	1	|	01 03 00 20 00 10 45 CC	|	01 03 00 20 00 04 45 C3	|	
|	2	|	02 03 00 20 00 10 45 FF	|	02 03 00 20 00 04 45 F0	|	
|	3	|	03 03 00 20 00 10 44 2E	|	03 03 00 20 00 04 44 21	|	
|	4	|	04 03 00 20 00 10 45 99	|	04 03 00 20 00 04 45 96	|	
|	5	|	05 03 00 20 00 10 44 48	|	05 03 00 20 00 04 44 47	|	
|	6	|	06 03 00 20 00 10 44 7B	|	06 03 00 20 00 04 44 74	|	
|	7	|	07 03 00 20 00 10 45 AA	|	07 03 00 20 00 04 45 A5	|	
|	8	|	08 03 00 20 00 10 45 55	|	08 03 00 20 00 04 45 5A	|	
|	9	|	09 03 00 20 00 10 44 84	|	09 03 00 20 00 04 44 8B	|	
|	10	|	0A 03 00 20 00 10 44 B7	|	0A 03 00 20 00 04 44 B8	|	
|	11	|	0B 03 00 20 00 10 45 66	|	0B 03 00 20 00 04 45 69	|	
|	12	|	0C 03 00 20 00 10 44 D1	|	0C 03 00 20 00 04 44 DE	|	
|	13	|	0D 03 00 20 00 10 45 00	|	0D 03 00 20 00 04 45 0F	|	
|	14	|	0E 03 00 20 00 10 45 33	|	0E 03 00 20 00 04 45 3C	|	
|	15	|	0F 03 00 20 00 10 44 E2	|	0F 03 00 20 00 04 44 ED	|	
|	16	|	10 03 00 20 00 10 46 8D	|	10 03 00 20 00 04 46 82	|	
|	17	|	11 03 00 20 00 10 47 5C	|	11 03 00 20 00 04 47 53	|	
|	18	|	12 03 00 20 00 10 47 6F	|	12 03 00 20 00 04 47 60	|	
|	19	|	13 03 00 20 00 10 46 BE	|	13 03 00 20 00 04 46 B1	|	
|	20	|	14 03 00 20 00 10 47 09	|	14 03 00 20 00 04 47 06	|	
|	21	|	15 03 00 20 00 10 46 D8	|	15 03 00 20 00 04 46 D7	|	
|	22	|	16 03 00 20 00 10 46 EB	|	16 03 00 20 00 04 46 E4	|	
|	23	|	17 03 00 20 00 10 47 3A	|	17 03 00 20 00 04 47 35	|	
|	24	|	18 03 00 20 00 10 47 C5	|	18 03 00 20 00 04 47 CA	|	
|	25	|	19 03 00 20 00 10 46 14	|	19 03 00 20 00 04 46 1B	|	
|	26	|	1A 03 00 20 00 10 46 27	|	1A 03 00 20 00 04 46 28	|	
|	27	|	1B 03 00 20 00 10 47 F6	|	1B 03 00 20 00 04 47 F9	|	
|	28	|	1C 03 00 20 00 10 46 41	|	1C 03 00 20 00 04 46 4E	|	
|	29	|	1D 03 00 20 00 10 47 90	|	1D 03 00 20 00 04 47 9F	|	
|	30	|	1E 03 00 20 00 10 47 A3	|	1E 03 00 20 00 04 47 AC	|	
|	31	|	1F 03 00 20 00 10 46 72	|	1F 03 00 20 00 04 46 7D	|	
|	32	|	20 03 00 20 00 10 43 7D	|	20 03 00 20 00 04 43 72	|	
|	33	|	21 03 00 20 00 10 42 AC	|	21 03 00 20 00 04 42 A3	|	
|	34	|	22 03 00 20 00 10 42 9F	|	22 03 00 20 00 04 42 90	|	
|	35	|	23 03 00 20 00 10 43 4E	|	23 03 00 20 00 04 43 41	|	
|	36	|	24 03 00 20 00 10 42 F9	|	24 03 00 20 00 04 42 F6	|	
|	37	|	25 03 00 20 00 10 43 28	|	25 03 00 20 00 04 43 27	|	
|	38	|	26 03 00 20 00 10 43 1B	|	26 03 00 20 00 04 43 14	|	
|	39	|	27 03 00 20 00 10 42 CA	|	27 03 00 20 00 04 42 C5	|	
|	40	|	28 03 00 20 00 10 42 35	|	28 03 00 20 00 04 42 3A	|	
|	41	|	29 03 00 20 00 10 43 E4	|	29 03 00 20 00 04 43 EB	|	
|	42	|	2A 03 00 20 00 10 43 D7	|	2A 03 00 20 00 04 43 D8	|	
|	43	|	2B 03 00 20 00 10 42 06	|	2B 03 00 20 00 04 42 09	|	
|	44	|	2C 03 00 20 00 10 43 B1	|	2C 03 00 20 00 04 43 BE	|	
|	45	|	2D 03 00 20 00 10 42 60	|	2D 03 00 20 00 04 42 6F	|	
|	46	|	2E 03 00 20 00 10 42 53	|	2E 03 00 20 00 04 42 5C	|	
|	47	|	2F 03 00 20 00 10 43 82	|	2F 03 00 20 00 04 43 8D	|	
|	48	|	30 03 00 20 00 10 41 ED	|	30 03 00 20 00 04 41 E2	|	
|	49	|	31 03 00 20 00 10 40 3C	|	31 03 00 20 00 04 40 33	|	
|	50	|	32 03 00 20 00 10 40 0F	|	32 03 00 20 00 04 40 00	|	
|	51	|	33 03 00 20 00 10 41 DE	|	33 03 00 20 00 04 41 D1	|	
|	52	|	34 03 00 20 00 10 40 69	|	34 03 00 20 00 04 40 66	|	
|	53	|	35 03 00 20 00 10 41 B8	|	35 03 00 20 00 04 41 B7	|	
|	54	|	36 03 00 20 00 10 41 8B	|	36 03 00 20 00 04 41 84	|	
|	55	|	37 03 00 20 00 10 40 5A	|	37 03 00 20 00 04 40 55	|	
|	56	|	38 03 00 20 00 10 40 A5	|	38 03 00 20 00 04 40 AA	|	
|	57	|	39 03 00 20 00 10 41 74	|	39 03 00 20 00 04 41 7B	|	
|	58	|	3A 03 00 20 00 10 41 47	|	3A 03 00 20 00 04 41 48	|	
|	59	|	3B 03 00 20 00 10 40 96	|	3B 03 00 20 00 04 40 99	|	
|	60	|	3C 03 00 20 00 10 41 21	|	3C 03 00 20 00 04 41 2E	|	
|	61	|	3D 03 00 20 00 10 40 F0	|	3D 03 00 20 00 04 40 FF	|	
|	62	|	3E 03 00 20 00 10 40 C3	|	3E 03 00 20 00 04 40 CC	|	
|	63	|	3F 03 00 20 00 10 41 12	|	3F 03 00 20 00 04 41 1D	|	
|	64	|	40 03 00 20 00 10 4A DD	|	40 03 00 20 00 04 4A D2	|	
|	65	|	41 03 00 20 00 10 4B 0C	|	41 03 00 20 00 04 4B 03	|	
|	66	|	42 03 00 20 00 10 4B 3F	|	42 03 00 20 00 04 4B 30	|	
|	67	|	43 03 00 20 00 10 4A EE	|	43 03 00 20 00 04 4A E1	|	
|	68	|	44 03 00 20 00 10 4B 59	|	44 03 00 20 00 04 4B 56	|	
|	69	|	45 03 00 20 00 10 4A 88	|	45 03 00 20 00 04 4A 87	|	
|	70	|	46 03 00 20 00 10 4A BB	|	46 03 00 20 00 04 4A B4	|	
|	71	|	47 03 00 20 00 10 4B 6A	|	47 03 00 20 00 04 4B 65	|	
|	72	|	48 03 00 20 00 10 4B 95	|	48 03 00 20 00 04 4B 9A	|	
|	73	|	49 03 00 20 00 10 4A 44	|	49 03 00 20 00 04 4A 4B	|	
|	74	|	4A 03 00 20 00 10 4A 77	|	4A 03 00 20 00 04 4A 78	|	
|	75	|	4B 03 00 20 00 10 4B A6	|	4B 03 00 20 00 04 4B A9	|	
|	76	|	4C 03 00 20 00 10 4A 11	|	4C 03 00 20 00 04 4A 1E	|	
|	77	|	4D 03 00 20 00 10 4B C0	|	4D 03 00 20 00 04 4B CF	|	
|	78	|	4E 03 00 20 00 10 4B F3	|	4E 03 00 20 00 04 4B FC	|	
|	79	|	4F 03 00 20 00 10 4A 22	|	4F 03 00 20 00 04 4A 2D	|	
|	80	|	50 03 00 20 00 10 48 4D	|	50 03 00 20 00 04 48 42	|	
|	81	|	51 03 00 20 00 10 49 9C	|	51 03 00 20 00 04 49 93	|	
|	82	|	52 03 00 20 00 10 49 AF	|	52 03 00 20 00 04 49 A0	|	
|	83	|	53 03 00 20 00 10 48 7E	|	53 03 00 20 00 04 48 71	|	
|	84	|	54 03 00 20 00 10 49 C9	|	54 03 00 20 00 04 49 C6	|	
|	85	|	55 03 00 20 00 10 48 18	|	55 03 00 20 00 04 48 17	|	
|	86	|	56 03 00 20 00 10 48 2B	|	56 03 00 20 00 04 48 24	|	
|	87	|	57 03 00 20 00 10 49 FA	|	57 03 00 20 00 04 49 F5	|	
|	88	|	58 03 00 20 00 10 49 05	|	58 03 00 20 00 04 49 0A	|	
|	89	|	59 03 00 20 00 10 48 D4	|	59 03 00 20 00 04 48 DB	|	
|	90	|	5A 03 00 20 00 10 48 E7	|	5A 03 00 20 00 04 48 E8	|	
|	91	|	5B 03 00 20 00 10 49 36	|	5B 03 00 20 00 04 49 39	|	
|	92	|	5C 03 00 20 00 10 48 81	|	5C 03 00 20 00 04 48 8E	|	
|	93	|	5D 03 00 20 00 10 49 50	|	5D 03 00 20 00 04 49 5F	|	
|	94	|	5E 03 00 20 00 10 49 63	|	5E 03 00 20 00 04 49 6C	|	
|	95	|	5F 03 00 20 00 10 48 B2	|	5F 03 00 20 00 04 48 BD	|	
|	96	|	60 03 00 20 00 10 4D BD	|	60 03 00 20 00 04 4D B2	|	
|	97	|	61 03 00 20 00 10 4C 6C	|	61 03 00 20 00 04 4C 63	|	
|	98	|	62 03 00 20 00 10 4C 5F	|	62 03 00 20 00 04 4C 50	|	
|	99	|	63 03 00 20 00 10 4D 8E	|	63 03 00 20 00 04 4D 81	|	
|	100	|	64 03 00 20 00 10 4C 39	|	64 03 00 20 00 04 4C 36	|	     